T495C 000:013.992   SEGGER J-Link V6.98 Log File
T495C 000:014.091   DLL Compiled: Mar  2 2021 15:48:59
T495C 000:014.095   Logging started @ 2026-09-15 09:47
T495C 000:014.099 - 14.101ms
T495C 000:014.106 JLINK_SetWarnOutHandler(...)
T495C 000:014.111 - 0.006ms
T495C 000:014.115 JLINK_OpenEx(...)
T495C 000:020.028   Firmware: J-Link V9 compiled May  7 2021 16:26:12
T495C 000:021.150   Firmware: J-Link V9 compiled May  7 2021 16:26:12
T495C 000:021.297   Decompressing FW timestamp took 111 us
T495C 000:031.424   Hardware: V9.40
T495C 000:031.445   S/N: 69405370
T495C 000:031.451   OEM: SEGGER
T495C 000:031.456   Feature(s): RDI, GDB, FlashDL, FlashBP, JFlash
T495C 000:040.037   TELNET listener socket opened on port 19021
T495C 000:040.127   WEBSRV Starting webserver
T495C 000:040.191   WEBSRV Failed to put socket into listener state (port 19080)
T495C 000:040.240   WEBSRV Webserver running on local port 19081
T495C 000:040.247 - 26.134ms returns "O.K."
T495C 000:040.278 JLINK_GetEmuCaps()
T495C 000:040.283 - 0.007ms returns 0xB9FF7BBF
T495C 000:040.290 JLINK_TIF_GetAvailable(...)
T495C 000:040.610 - 0.330ms
T495C 000:040.647 JLINK_SetErrorOutHandler(...)
T495C 000:040.652 - 0.006ms
T495C 000:040.668 JLINK_ExecCommand("ProjectFile = "C:\Users\Admin1\Desktop\KeilProject32\Learn_Code\06_uart_dma\MDK-ARM\JLinkSettings.ini"", ...). 
T495C 000:047.077   Ref file found at: D:\Keil5\ARM\Segger\JLinkDevices.ref
T495C 000:047.181   XML referenced by ref file: C:\Program Files (x86)\SEGGER\JLink\JLinkDevices.xml
T495C 000:047.639   C:\Program Files (x86)\SEGGER\JLink\JLinkDevices.xml evaluated successfully.
T495C 000:062.352 - 21.699ms returns 0x00
T495C 000:065.003 JLINK_ExecCommand("Device = STM32F411CEUx", ...). 
T495C 000:066.833   Device "STM32F411CE" selected.
T495C 000:067.094 - 2.077ms returns 0x00
T495C 000:067.109 JLINK_GetHardwareVersion()
T495C 000:067.113 - 0.006ms returns 94000
T495C 000:067.120 JLINK_GetDLLVersion()
T495C 000:067.124 - 0.005ms returns 69800
T495C 000:067.128 JLINK_GetOEMString(...)
T495C 000:067.134 JLINK_GetFirmwareString(...)
T495C 000:067.138 - 0.005ms
T495C 000:070.925 JLINK_GetDLLVersion()
T495C 000:070.940 - 0.017ms returns 69800
T495C 000:070.945 JLINK_GetCompileDateTime()
T495C 000:070.949 - 0.005ms
T495C 000:072.121 JLINK_GetFirmwareString(...)
T495C 000:072.134 - 0.014ms
T495C 000:073.366 JLINK_GetHardwareVersion()
T495C 000:073.378 - 0.014ms returns 94000
T495C 000:076.040 JLINK_GetSN()
T495C 000:076.056 - 0.018ms returns 69405370
T495C 000:077.282 JLINK_GetOEMString(...)
T495C 000:079.348 JLINK_TIF_Select(JLINKARM_TIF_SWD)
T495C 000:081.897 - 2.560ms returns 0x00
T495C 000:081.923 JLINK_HasError()
T495C 000:081.934 JLINK_SetSpeed(5000)
T495C 000:082.348 - 0.423ms
T495C 000:082.369 JLINK_GetId()
T495C 000:086.077   Found SW-DP with ID 0x2BA01477
T495C 000:108.154   Found SW-DP with ID 0x2BA01477
T495C 000:113.521   DPIDR: 0x2BA01477
T495C 000:114.840   Scanning AP map to find all available APs
T495C 000:117.004   AP[1]: Stopped AP scan as end of AP map has been reached
T495C 000:118.190   AP[0]: AHB-AP (IDR: 0x24770011)
T495C 000:119.302   Iterating through AP map to find AHB-AP to use
T495C 000:122.474   AP[0]: Core found
T495C 000:123.897   AP[0]: AHB-AP ROM base: 0xE00FF000
T495C 000:126.269   CPUID register: 0x410FC241. Implementer code: 0x41 (ARM)
T495C 000:127.654   Found Cortex-M4 r0p1, Little endian.
T495C 000:229.713   -- Max. mem block: 0x00010768
T495C 000:233.313   CPU_ReadMem(4 bytes @ 0xE000EDF0)
T495C 000:233.799   CPU_ReadMem(4 bytes @ 0xE0002000)
T495C 000:236.095   FPUnit: 6 code (BP) slots and 2 literal slots
T495C 000:236.111   CPU_ReadMem(4 bytes @ 0xE000EDFC)
T495C 000:236.564   CPU_ReadMem(4 bytes @ 0xE0001000)
T495C 000:237.448   CPU_WriteMem(4 bytes @ 0xE0001000)
T495C 000:238.295   CPU_ReadMem(4 bytes @ 0xE000ED88)
T495C 000:238.727   CPU_WriteMem(4 bytes @ 0xE000ED88)
T495C 000:239.105   CPU_ReadMem(4 bytes @ 0xE000ED88)
T495C 000:239.511   CPU_WriteMem(4 bytes @ 0xE000ED88)
T495C 000:241.670   CoreSight components:
T495C 000:243.160   ROMTbl[0] @ E00FF000
T495C 000:243.178   CPU_ReadMem(64 bytes @ 0xE00FF000)
T495C 000:244.101   CPU_ReadMem(32 bytes @ 0xE000EFE0)
T495C 000:247.193   ROMTbl[0][0]: E000E000, CID: B105E00D, PID: 000BB00C SCS-M7
T495C 000:247.224   CPU_ReadMem(32 bytes @ 0xE0001FE0)
T495C 000:249.296   ROMTbl[0][1]: E0001000, CID: B105E00D, PID: 003BB002 DWT
T495C 000:249.319   CPU_ReadMem(32 bytes @ 0xE0002FE0)
T495C 000:251.515   ROMTbl[0][2]: E0002000, CID: B105E00D, PID: 002BB003 FPB
T495C 000:251.533   CPU_ReadMem(32 bytes @ 0xE0000FE0)
T495C 000:255.712   ROMTbl[0][3]: E0000000, CID: B105E00D, PID: 003BB001 ITM
T495C 000:255.738   CPU_ReadMem(32 bytes @ 0xE0040FE0)
T495C 000:272.923   ROMTbl[0][4]: E0040000, CID: B105900D, PID: 000BB9A1 TPIU
T495C 000:272.957   CPU_ReadMem(32 bytes @ 0xE0041FE0)
T495C 000:275.952   ROMTbl[0][5]: E0041000, CID: B105900D, PID: 000BB925 ETM
T495C 000:276.653 - 194.296ms returns 0x2BA01477
T495C 000:276.696 JLINK_GetDLLVersion()
T495C 000:276.701 - 0.006ms returns 69800
T495C 000:276.711 JLINK_CORE_GetFound()
T495C 000:276.715 - 0.005ms returns 0xE0000FF
T495C 000:276.732 JLINK_GetDebugInfo(0x100 = JLINKARM_ROM_TABLE_ADDR_INDEX)
T495C 000:276.738   Value=0xE00FF000
T495C 000:276.743 - 0.012ms returns 0
T495C 000:278.408 JLINK_GetDebugInfo(0x100 = JLINKARM_ROM_TABLE_ADDR_INDEX)
T495C 000:278.424   Value=0xE00FF000
T495C 000:278.430 - 0.024ms returns 0
T495C 000:278.434 JLINK_GetDebugInfo(0x101 = JLINKARM_DEBUG_INFO_ETM_ADDR_INDEX)
T495C 000:278.438   Value=0xE0041000
T495C 000:278.443 - 0.010ms returns 0
T495C 000:278.448 JLINK_ReadMemEx(0xE0041FD0, 0x20 Bytes, Flags = 0x02000004)
T495C 000:278.470   CPU_ReadMem(32 bytes @ 0xE0041FD0)
T495C 000:300.407   Data:  04 00 00 00 00 00 00 00 00 00 00 00 00 00 00 00 ...
T495C 000:300.428 - 21.982ms returns 32 (0x20)
T495C 000:300.467 JLINK_GetDebugInfo(0x102 = JLINKARM_DEBUG_INFO_MTB_ADDR_INDEX)
T495C 000:300.472   Value=0x00000000
T495C 000:300.478 - 0.012ms returns 0
T495C 000:300.483 JLINK_GetDebugInfo(0x103 = JLINKARM_DEBUG_INFO_TPIU_ADDR_INDEX)
T495C 000:300.487   Value=0xE0040000
T495C 000:300.492 - 0.010ms returns 0
T495C 000:300.496 JLINK_GetDebugInfo(0x104 = JLINKARM_DEBUG_INFO_ITM_ADDR_INDEX)
T495C 000:300.500   Value=0xE0000000
T495C 000:300.505 - 0.010ms returns 0
T495C 000:300.509 JLINK_GetDebugInfo(0x105 = JLINKARM_DEBUG_INFO_DWT_ADDR_INDEX)
T495C 000:300.513   Value=0xE0001000
T495C 000:300.518 - 0.010ms returns 0
T495C 000:300.522 JLINK_GetDebugInfo(0x106 = JLINKARM_DEBUG_INFO_FPB_ADDR_INDEX)
T495C 000:300.526   Value=0xE0002000
T495C 000:300.531 - 0.010ms returns 0
T495C 000:300.536 JLINK_GetDebugInfo(0x107 = JLINKARM_DEBUG_INFO_NVIC_ADDR_INDEX)
T495C 000:300.539   Value=0xE000E000
T495C 000:300.544 - 0.010ms returns 0
T495C 000:300.549 JLINK_GetDebugInfo(0x10C = JLINKARM_DEBUG_INFO_DBG_ADDR_INDEX)
T495C 000:300.553   Value=0xE000EDF0
T495C 000:300.558 - 0.010ms returns 0
T495C 000:300.562 JLINK_GetDebugInfo(0x01 = Unknown)
T495C 000:300.566   Value=0x00000001
T495C 000:300.571 - 0.010ms returns 0
T495C 000:300.576 JLINK_ReadMemU32(0xE000ED00, 0x1 Items)
T495C 000:300.591   CPU_ReadMem(4 bytes @ 0xE000ED00)
T495C 000:301.207   Data:  41 C2 0F 41
T495C 000:301.220   Debug reg: CPUID
T495C 000:301.226 - 0.718ms returns 1 (0x1)
T495C 000:301.306 JLINK_GetDebugInfo(0x10F = JLINKARM_DEBUG_INFO_HAS_CORTEX_M_SECURITY_EXT_INDEX)
T495C 000:301.311   Value=0x00000000
T495C 000:301.316 - 0.132ms returns 0
T495C 000:301.442 JLINK_HasError()
T495C 000:301.448 JLINK_SetResetType(JLINKARM_CM3_RESET_TYPE_NORMAL)
T495C 000:301.452 - 0.006ms returns JLINKARM_CM3_RESET_TYPE_NORMAL
T495C 000:301.457 JLINK_Reset()
T495C 000:302.152   CPU is running
T495C 000:302.168   CPU_WriteMem(4 bytes @ 0xE000EDF0)
T495C 000:302.933   CPU is running
T495C 000:302.947   CPU_WriteMem(4 bytes @ 0xE000EDFC)
T495C 000:305.355   Reset: Halt core after reset via DEMCR.VC_CORERESET.
T495C 000:307.802   Reset: Reset device via AIRCR.SYSRESETREQ.
T495C 000:307.826   CPU is running
T495C 000:307.842   CPU_WriteMem(4 bytes @ 0xE000ED0C)
T495C 000:361.479   CPU_ReadMem(4 bytes @ 0xE000EDF0)
T495C 000:362.023   CPU_ReadMem(4 bytes @ 0xE000EDF0)
T495C 000:362.922   CPU is running
T495C 000:362.930   CPU_WriteMem(4 bytes @ 0xE000EDF0)
T495C 000:363.631   CPU is running
T495C 000:363.645   CPU_WriteMem(4 bytes @ 0xE000EDFC)
T495C 000:369.845   CPU_ReadMem(4 bytes @ 0xE000EDF0)
T495C 000:373.575   CPU_WriteMem(4 bytes @ 0xE0002000)
T495C 000:374.381   CPU_ReadMem(4 bytes @ 0xE000EDFC)
T495C 000:374.806   CPU_ReadMem(4 bytes @ 0xE0001000)
T495C 000:375.406 - 73.957ms
T495C 000:375.433 JLINK_Halt()
T495C 000:375.438 - 0.006ms returns 0x00
T495C 000:375.443 JLINK_ReadMemU32(0xE000EDF0, 0x1 Items)
T495C 000:375.456   CPU_ReadMem(4 bytes @ 0xE000EDF0)
T495C 000:376.003   Data:  03 00 03 00
T495C 000:376.012   Debug reg: DHCSR
T495C 000:376.018 - 0.576ms returns 1 (0x1)
T495C 000:376.153 JLINK_WriteU32_64(0xE000EDF0, 0xA05F0003)
T495C 000:376.158   Debug reg: DHCSR
T495C 000:377.653   CPU_WriteMem(4 bytes @ 0xE000EDF0)
T495C 000:399.521 - 23.384ms returns 0 (0x00000000)
T495C 000:399.568 JLINK_WriteU32_64(0xE000EDFC, 0x01000000)
T495C 000:399.575   Debug reg: DEMCR
T495C 000:399.593   CPU_WriteMem(4 bytes @ 0xE000EDFC)
T495C 000:400.147 - 0.587ms returns 0 (0x00000000)
T495C 000:406.509 JLINK_GetHWStatus(...)
T495C 000:406.879 - 0.382ms returns 0
T495C 000:410.665 JLINK_GetNumBPUnits(Type = 0xFFFFFF00)
T495C 000:410.684 - 0.020ms returns 0x06
T495C 000:410.689 JLINK_GetNumBPUnits(Type = 0xF0)
T495C 000:410.693 - 0.006ms returns 0x2000
T495C 000:410.698 JLINK_GetNumWPUnits()
T495C 000:410.701 - 0.005ms returns 4
T495C 000:421.429 JLINK_GetSpeed()
T495C 000:421.520 - 0.094ms returns 4000
T495C 000:428.810 JLINK_ReadMemU32(0xE000E004, 0x1 Items)
T495C 000:428.846   CPU_ReadMem(4 bytes @ 0xE000E004)
T495C 000:429.528   Data:  02 00 00 00
T495C 000:429.542 - 0.733ms returns 1 (0x1)
T495C 000:429.557 JLINK_ReadMemU32(0xE000E004, 0x1 Items)
T495C 000:429.566   CPU_ReadMem(4 bytes @ 0xE000E004)
T495C 000:430.141   Data:  02 00 00 00
T495C 000:430.153 - 0.598ms returns 1 (0x1)
T495C 000:430.167 JLINK_WriteMemEx(0xE0001000, 0x0000001C Bytes, Flags = 0x02000004)
T495C 000:430.171   Data:  01 00 00 00 00 00 00 00 00 00 00 00 00 00 00 00 ...
T495C 000:430.188   CPU_WriteMem(28 bytes @ 0xE0001000)
T495C 000:430.771 - 0.613ms returns 0x1C
T495C 000:430.796 JLINK_Halt()
T495C 000:430.800 - 0.006ms returns 0x00
T495C 000:430.805 JLINK_IsHalted()
T495C 000:430.810 - 0.007ms returns TRUE
T495C 000:433.484 JLINK_WriteMem(0x20000000, 0x184 Bytes, ...)
T495C 000:433.495   Data:  00 BE 0A E0 0D 78 2D 06 68 40 08 24 40 00 00 D3 ...
T495C 000:433.721   CPU_WriteMem(388 bytes @ 0x20000000)
T495C 000:455.995 - 22.532ms returns 0x184
T495C 000:456.089 JLINK_HasError()
T495C 000:456.100 JLINK_WriteReg(R0, 0x08000000)
T495C 000:456.115 - 0.018ms returns 0
T495C 000:456.123 JLINK_WriteReg(R1, 0x017D7840)
T495C 000:456.130 - 0.010ms returns 0
T495C 000:456.137 JLINK_WriteReg(R2, 0x00000001)
T495C 000:456.144 - 0.009ms returns 0
T495C 000:456.151 JLINK_WriteReg(R3, 0x00000000)
T495C 000:456.157 - 0.009ms returns 0
T495C 000:456.165 JLINK_WriteReg(R4, 0x00000000)
T495C 000:456.171 - 0.009ms returns 0
T495C 000:456.178 JLINK_WriteReg(R5, 0x00000000)
T495C 000:456.185 - 0.009ms returns 0
T495C 000:456.192 JLINK_WriteReg(R6, 0x00000000)
T495C 000:456.198 - 0.009ms returns 0
T495C 000:456.206 JLINK_WriteReg(R7, 0x00000000)
T495C 000:456.212 - 0.009ms returns 0
T495C 000:456.219 JLINK_WriteReg(R8, 0x00000000)
T495C 000:456.241 - 0.025ms returns 0
T495C 000:456.249 JLINK_WriteReg(R9, 0x20000180)
T495C 000:456.255 - 0.009ms returns 0
T495C 000:456.262 JLINK_WriteReg(R10, 0x00000000)
T495C 000:456.269 - 0.009ms returns 0
T495C 000:456.276 JLINK_WriteReg(R11, 0x00000000)
T495C 000:456.283 - 0.009ms returns 0
T495C 000:456.290 JLINK_WriteReg(R12, 0x00000000)
T495C 000:456.296 - 0.009ms returns 0
T495C 000:456.303 JLINK_WriteReg(R13 (SP), 0x20001000)
T495C 000:456.311 - 0.013ms returns 0
T495C 000:456.322 JLINK_WriteReg(R14, 0x20000001)
T495C 000:456.329 - 0.009ms returns 0
T495C 000:456.336 JLINK_WriteReg(R15 (PC), 0x20000054)
T495C 000:456.343 - 0.009ms returns 0
T495C 000:456.350 JLINK_WriteReg(XPSR, 0x01000000)
T495C 000:456.357 - 0.009ms returns 0
T495C 000:456.364 JLINK_WriteReg(MSP, 0x20001000)
T495C 000:456.370 - 0.009ms returns 0
T495C 000:456.378 JLINK_WriteReg(PSP, 0x20001000)
T495C 000:456.384 - 0.009ms returns 0
T495C 000:456.391 JLINK_WriteReg(CFBP, 0x00000000)
T495C 000:456.398 - 0.009ms returns 0
T495C 000:456.405 JLINK_SetBPEx(Addr = 0x20000000, Type = 0xFFFFFFF2)
T495C 000:456.423   CPU_ReadMem(2 bytes @ 0x20000000)
T495C 000:456.980 - 0.586ms returns 0x00000001
T495C 000:457.015 JLINK_Go()
T495C 000:457.024   CPU_WriteMem(2 bytes @ 0x20000000)
T495C 000:457.596   CPU_ReadMem(4 bytes @ 0xE0001000)
T495C 000:458.245   CPU_WriteMem(4 bytes @ 0xE0002008)
T495C 000:458.259   CPU_WriteMem(4 bytes @ 0xE000200C)
T495C 000:458.265   CPU_WriteMem(4 bytes @ 0xE0002010)
T495C 000:458.270   CPU_WriteMem(4 bytes @ 0xE0002014)
T495C 000:458.276   CPU_WriteMem(4 bytes @ 0xE0002018)
T495C 000:458.281   CPU_WriteMem(4 bytes @ 0xE000201C)
T495C 000:459.897   CPU_WriteMem(4 bytes @ 0xE0001004)
T495C 000:463.991 - 6.987ms
T495C 000:464.030 JLINK_IsHalted()
T495C 000:466.723   CPU_ReadMem(2 bytes @ 0x20000000)
T495C 000:467.252 - 3.231ms returns TRUE
T495C 000:467.282 JLINK_ReadReg(R15 (PC))
T495C 000:467.292 - 0.011ms returns 0x20000000
T495C 000:467.297 JLINK_ClrBPEx(BPHandle = 0x00000001)
T495C 000:467.302 - 0.006ms returns 0x00
T495C 000:467.306 JLINK_ReadReg(R0)
T495C 000:467.310 - 0.006ms returns 0x00000000
T495C 000:467.668 JLINK_HasError()
T495C 000:467.677 JLINK_WriteReg(R0, 0x08000000)
T495C 000:467.682 - 0.007ms returns 0
T495C 000:467.687 JLINK_WriteReg(R1, 0x00004000)
T495C 000:467.691 - 0.005ms returns 0
T495C 000:467.696 JLINK_WriteReg(R2, 0x000000FF)
T495C 000:467.699 - 0.005ms returns 0
T495C 000:467.704 JLINK_WriteReg(R3, 0x00000000)
T495C 000:467.708 - 0.005ms returns 0
T495C 000:467.712 JLINK_WriteReg(R4, 0x00000000)
T495C 000:467.716 - 0.005ms returns 0
T495C 000:467.720 JLINK_WriteReg(R5, 0x00000000)
T495C 000:467.724 - 0.005ms returns 0
T495C 000:467.728 JLINK_WriteReg(R6, 0x00000000)
T495C 000:467.732 - 0.005ms returns 0
T495C 000:467.736 JLINK_WriteReg(R7, 0x00000000)
T495C 000:467.740 - 0.005ms returns 0
T495C 000:467.745 JLINK_WriteReg(R8, 0x00000000)
T495C 000:467.749 - 0.005ms returns 0
T495C 000:467.753 JLINK_WriteReg(R9, 0x20000180)
T495C 000:467.757 - 0.005ms returns 0
T495C 000:467.761 JLINK_WriteReg(R10, 0x00000000)
T495C 000:467.765 - 0.005ms returns 0
T495C 000:467.769 JLINK_WriteReg(R11, 0x00000000)
T495C 000:467.773 - 0.005ms returns 0
T495C 000:467.777 JLINK_WriteReg(R12, 0x00000000)
T495C 000:467.781 - 0.005ms returns 0
T495C 000:467.785 JLINK_WriteReg(R13 (SP), 0x20001000)
T495C 000:467.790 - 0.006ms returns 0
T495C 000:467.794 JLINK_WriteReg(R14, 0x20000001)
T495C 000:467.798 - 0.005ms returns 0
T495C 000:467.802 JLINK_WriteReg(R15 (PC), 0x20000020)
T495C 000:467.806 - 0.005ms returns 0
T495C 000:467.811 JLINK_WriteReg(XPSR, 0x01000000)
T495C 000:467.815 - 0.005ms returns 0
T495C 000:467.819 JLINK_WriteReg(MSP, 0x20001000)
T495C 000:467.823 - 0.005ms returns 0
T495C 000:467.827 JLINK_WriteReg(PSP, 0x20001000)
T495C 000:467.831 - 0.005ms returns 0
T495C 000:467.835 JLINK_WriteReg(CFBP, 0x00000000)
T495C 000:467.839 - 0.005ms returns 0
T495C 000:467.844 JLINK_SetBPEx(Addr = 0x20000000, Type = 0xFFFFFFF2)
T495C 000:467.848 - 0.006ms returns 0x00000002
T495C 000:467.853 JLINK_Go()
T495C 000:467.863   CPU_ReadMem(4 bytes @ 0xE0001000)
T495C 000:471.676 - 3.833ms
T495C 000:471.698 JLINK_IsHalted()
T495C 000:474.995   CPU_ReadMem(2 bytes @ 0x20000000)
T495C 000:475.547 - 3.857ms returns TRUE
T495C 000:475.577 JLINK_ReadReg(R15 (PC))
T495C 000:475.586 - 0.011ms returns 0x20000000
T495C 000:475.592 JLINK_ClrBPEx(BPHandle = 0x00000002)
T495C 000:475.596 - 0.006ms returns 0x00
T495C 000:475.646 JLINK_ReadReg(R0)
T495C 000:475.652 - 0.007ms returns 0x00000001
T495C 000:475.658 JLINK_HasError()
T495C 000:475.663 JLINK_WriteReg(R0, 0x08000000)
T495C 000:475.668 - 0.006ms returns 0
T495C 000:475.673 JLINK_WriteReg(R1, 0x00004000)
T495C 000:475.677 - 0.006ms returns 0
T495C 000:475.681 JLINK_WriteReg(R2, 0x000000FF)
T495C 000:475.685 - 0.005ms returns 0
T495C 000:475.690 JLINK_WriteReg(R3, 0x00000000)
T495C 000:475.694 - 0.005ms returns 0
T495C 000:475.698 JLINK_WriteReg(R4, 0x00000000)
T495C 000:475.702 - 0.005ms returns 0
T495C 000:475.707 JLINK_WriteReg(R5, 0x00000000)
T495C 000:475.711 - 0.005ms returns 0
T495C 000:475.715 JLINK_WriteReg(R6, 0x00000000)
T495C 000:475.719 - 0.005ms returns 0
T495C 000:475.724 JLINK_WriteReg(R7, 0x00000000)
T495C 000:475.728 - 0.005ms returns 0
T495C 000:475.732 JLINK_WriteReg(R8, 0x00000000)
T495C 000:475.736 - 0.005ms returns 0
T495C 000:475.740 JLINK_WriteReg(R9, 0x20000180)
T495C 000:475.744 - 0.005ms returns 0
T495C 000:475.749 JLINK_WriteReg(R10, 0x00000000)
T495C 000:475.753 - 0.005ms returns 0
T495C 000:475.757 JLINK_WriteReg(R11, 0x00000000)
T495C 000:475.761 - 0.005ms returns 0
T495C 000:475.766 JLINK_WriteReg(R12, 0x00000000)
T495C 000:475.770 - 0.005ms returns 0
T495C 000:475.774 JLINK_WriteReg(R13 (SP), 0x20001000)
T495C 000:475.779 - 0.006ms returns 0
T495C 000:475.783 JLINK_WriteReg(R14, 0x20000001)
T495C 000:475.787 - 0.005ms returns 0
T495C 000:475.791 JLINK_WriteReg(R15 (PC), 0x200000C0)
T495C 000:475.795 - 0.005ms returns 0
T495C 000:475.800 JLINK_WriteReg(XPSR, 0x01000000)
T495C 000:475.804 - 0.006ms returns 0
T495C 000:475.808 JLINK_WriteReg(MSP, 0x20001000)
T495C 000:475.812 - 0.005ms returns 0
T495C 000:475.817 JLINK_WriteReg(PSP, 0x20001000)
T495C 000:475.820 - 0.005ms returns 0
T495C 000:475.825 JLINK_WriteReg(CFBP, 0x00000000)
T495C 000:475.829 - 0.005ms returns 0
T495C 000:475.833 JLINK_SetBPEx(Addr = 0x20000000, Type = 0xFFFFFFF2)
T495C 000:475.838 - 0.006ms returns 0x00000003
T495C 000:475.843 JLINK_Go()
T495C 000:475.854   CPU_ReadMem(4 bytes @ 0xE0001000)
T495C 000:479.465 - 3.626ms
T495C 000:479.479 JLINK_IsHalted()
T495C 000:479.971 - 0.495ms returns FALSE
T495C 000:479.985 JLINK_HasError()
T495C 000:530.645 JLINK_IsHalted()
T495C 000:532.033 - 1.391ms returns FALSE
T495C 000:532.051 JLINK_HasError()
T495C 000:533.533 JLINK_IsHalted()
T495C 000:534.073 - 0.630ms returns FALSE
T495C 000:534.176 JLINK_HasError()
T495C 000:535.636 JLINK_IsHalted()
T495C 000:536.396 - 0.770ms returns FALSE
T495C 000:536.435 JLINK_HasError()
T495C 000:537.741 JLINK_IsHalted()
T495C 000:538.220 - 0.507ms returns FALSE
T495C 000:538.275 JLINK_HasError()
T495C 000:539.389 JLINK_IsHalted()
T495C 000:539.925 - 0.544ms returns FALSE
T495C 000:539.960 JLINK_HasError()
T495C 000:541.524 JLINK_IsHalted()
T495C 000:541.906 - 0.391ms returns FALSE
T495C 000:541.938 JLINK_HasError()
T495C 000:543.509 JLINK_IsHalted()
T495C 000:544.022 - 0.522ms returns FALSE
T495C 000:544.054 JLINK_HasError()
T495C 000:546.053 JLINK_IsHalted()
T495C 000:546.475 - 0.426ms returns FALSE
T495C 000:546.491 JLINK_HasError()
T495C 000:548.064 JLINK_IsHalted()
T495C 000:548.423 - 0.361ms returns FALSE
T495C 000:548.436 JLINK_HasError()
T495C 000:550.056 JLINK_IsHalted()
T495C 000:550.423 - 0.369ms returns FALSE
T495C 000:550.436 JLINK_HasError()
T495C 000:552.043 JLINK_IsHalted()
T495C 000:552.440 - 0.402ms returns FALSE
T495C 000:552.458 JLINK_HasError()
T495C 000:554.588 JLINK_IsHalted()
T495C 000:576.372 - 21.795ms returns FALSE
T495C 000:576.409 JLINK_HasError()
T495C 000:591.490 JLINK_IsHalted()
T495C 000:592.082 - 0.615ms returns FALSE
T495C 000:592.133 JLINK_HasError()
T495C 000:593.569 JLINK_IsHalted()
T495C 000:594.052 - 0.492ms returns FALSE
T495C 000:594.084 JLINK_HasError()
T495C 000:596.098 JLINK_IsHalted()
T495C 000:596.632 - 0.536ms returns FALSE
T495C 000:596.644 JLINK_HasError()
T495C 000:597.999 JLINK_IsHalted()
T495C 000:598.545 - 0.549ms returns FALSE
T495C 000:598.558 JLINK_HasError()
T495C 000:599.967 JLINK_IsHalted()
T495C 000:600.351 - 0.387ms returns FALSE
T495C 000:600.365 JLINK_HasError()
T495C 000:602.070 JLINK_IsHalted()
T495C 000:602.433 - 0.365ms returns FALSE
T495C 000:602.449 JLINK_HasError()
T495C 000:604.560 JLINK_IsHalted()
T495C 000:605.049 - 0.492ms returns FALSE
T495C 000:605.062 JLINK_HasError()
T495C 000:606.655 JLINK_IsHalted()
T495C 000:630.277 - 23.639ms returns FALSE
T495C 000:630.329 JLINK_HasError()
T495C 000:632.888 JLINK_IsHalted()
T495C 000:633.492 - 0.612ms returns FALSE
T495C 000:633.582 JLINK_HasError()
T495C 000:635.391 JLINK_IsHalted()
T495C 000:635.862 - 0.473ms returns FALSE
T495C 000:635.871 JLINK_HasError()
T495C 000:637.538 JLINK_IsHalted()
T495C 000:638.241 - 0.706ms returns FALSE
T495C 000:638.415 JLINK_HasError()
T495C 000:641.216 JLINK_IsHalted()
T495C 000:641.691 - 0.488ms returns FALSE
T495C 000:641.735 JLINK_HasError()
T495C 000:643.200 JLINK_IsHalted()
T495C 000:643.647 - 0.451ms returns FALSE
T495C 000:643.671 JLINK_HasError()
T495C 000:645.277 JLINK_IsHalted()
T495C 000:645.691 - 0.420ms returns FALSE
T495C 000:645.718 JLINK_HasError()
T495C 000:647.277 JLINK_IsHalted()
T495C 000:647.664 - 0.389ms returns FALSE
T495C 000:647.677 JLINK_HasError()
T495C 000:649.318 JLINK_IsHalted()
T495C 000:649.672 - 0.357ms returns FALSE
T495C 000:649.685 JLINK_HasError()
T495C 000:651.309 JLINK_IsHalted()
T495C 000:651.682 - 0.376ms returns FALSE
T495C 000:651.695 JLINK_HasError()
T495C 000:653.315 JLINK_IsHalted()
T495C 000:653.760 - 0.448ms returns FALSE
T495C 000:653.778 JLINK_HasError()
T495C 000:655.788 JLINK_IsHalted()
T495C 000:656.141 - 0.541ms returns FALSE
T495C 000:656.351 JLINK_HasError()
T495C 000:657.854 JLINK_IsHalted()
T495C 000:658.173 - 0.321ms returns FALSE
T495C 000:658.186 JLINK_HasError()
T495C 000:659.819 JLINK_IsHalted()
T495C 000:660.148 - 0.332ms returns FALSE
T495C 000:660.164 JLINK_HasError()
T495C 000:661.852 JLINK_IsHalted()
T495C 000:662.178 - 0.330ms returns FALSE
T495C 000:662.195 JLINK_HasError()
T495C 000:664.171 JLINK_IsHalted()
T495C 000:664.555 - 0.387ms returns FALSE
T495C 000:664.569 JLINK_HasError()
T495C 000:666.209 JLINK_IsHalted()
T495C 000:666.720 - 0.514ms returns FALSE
T495C 000:666.735 JLINK_HasError()
T495C 000:668.606 JLINK_IsHalted()
T495C 000:668.933 - 0.331ms returns FALSE
T495C 000:668.952 JLINK_HasError()
T495C 000:674.160 JLINK_IsHalted()
T495C 000:695.149 - 21.193ms returns FALSE
T495C 000:695.393 JLINK_HasError()
T495C 000:701.726 JLINK_IsHalted()
T495C 000:702.179 - 0.463ms returns FALSE
T495C 000:702.213 JLINK_HasError()
T495C 000:704.535 JLINK_IsHalted()
T495C 000:705.123 - 0.595ms returns FALSE
T495C 000:705.222 JLINK_HasError()
T495C 000:707.482 JLINK_IsHalted()
T495C 000:707.886 - 0.407ms returns FALSE
T495C 000:708.028 JLINK_HasError()
T495C 000:709.510 JLINK_IsHalted()
T495C 000:709.896 - 0.393ms returns FALSE
T495C 000:709.923 JLINK_HasError()
T495C 000:711.441 JLINK_IsHalted()
T495C 000:711.794 - 0.356ms returns FALSE
T495C 000:711.808 JLINK_HasError()
T495C 000:713.561 JLINK_IsHalted()
T495C 000:713.947 - 0.392ms returns FALSE
T495C 000:713.970 JLINK_HasError()
T495C 000:715.685 JLINK_IsHalted()
T495C 000:716.043 - 0.369ms returns FALSE
T495C 000:716.082 JLINK_HasError()
T495C 000:717.721 JLINK_IsHalted()
T495C 000:718.104 - 0.387ms returns FALSE
T495C 000:718.120 JLINK_HasError()
T495C 000:719.603 JLINK_IsHalted()
T495C 000:719.906 - 0.307ms returns FALSE
T495C 000:719.923 JLINK_HasError()
T495C 000:721.720 JLINK_IsHalted()
T495C 000:722.343 - 0.629ms returns FALSE
T495C 000:722.364 JLINK_HasError()
T495C 000:724.152 JLINK_IsHalted()
T495C 000:724.626 - 0.489ms returns FALSE
T495C 000:724.653 JLINK_HasError()
T495C 000:726.469 JLINK_IsHalted()
T495C 000:727.076 - 0.611ms returns FALSE
T495C 000:727.093 JLINK_HasError()
T495C 000:728.552 JLINK_IsHalted()
T495C 000:728.875 - 0.327ms returns FALSE
T495C 000:728.896 JLINK_HasError()
T495C 000:730.501 JLINK_IsHalted()
T495C 000:730.991 - 0.496ms returns FALSE
T495C 000:731.009 JLINK_HasError()
T495C 000:732.678 JLINK_IsHalted()
T495C 000:733.033 - 0.358ms returns FALSE
T495C 000:733.046 JLINK_HasError()
T495C 000:734.501 JLINK_IsHalted()
T495C 000:734.934 - 0.440ms returns FALSE
T495C 000:734.960 JLINK_HasError()
T495C 000:736.963 JLINK_IsHalted()
T495C 000:760.156 - 23.211ms returns FALSE
T495C 000:760.204 JLINK_HasError()
T495C 000:774.441 JLINK_IsHalted()
T495C 000:774.829 - 0.399ms returns FALSE
T495C 000:774.867 JLINK_HasError()
T495C 000:776.500 JLINK_IsHalted()
T495C 000:776.904 - 0.408ms returns FALSE
T495C 000:776.921 JLINK_HasError()
T495C 000:778.543 JLINK_IsHalted()
T495C 000:779.169 - 0.635ms returns FALSE
T495C 000:779.390 JLINK_HasError()
T495C 000:781.520 JLINK_IsHalted()
T495C 000:781.893 - 0.375ms returns FALSE
T495C 000:781.907 JLINK_HasError()
T495C 000:783.503 JLINK_IsHalted()
T495C 000:783.996 - 0.496ms returns FALSE
T495C 000:784.008 JLINK_HasError()
T495C 000:785.238 JLINK_IsHalted()
T495C 000:785.552 - 0.316ms returns FALSE
T495C 000:785.567 JLINK_HasError()
T495C 000:787.476 JLINK_IsHalted()
T495C 000:787.845 - 0.372ms returns FALSE
T495C 000:787.860 JLINK_HasError()
T495C 000:789.800 JLINK_IsHalted()
T495C 000:790.276 - 0.478ms returns FALSE
T495C 000:790.288 JLINK_HasError()
T495C 000:791.866 JLINK_IsHalted()
T495C 000:792.203 - 0.339ms returns FALSE
T495C 000:792.215 JLINK_HasError()
T495C 000:794.406 JLINK_IsHalted()
T495C 000:794.747 - 0.344ms returns FALSE
T495C 000:794.761 JLINK_HasError()
T495C 000:797.461 JLINK_IsHalted()
T495C 000:797.833 - 0.375ms returns FALSE
T495C 000:797.848 JLINK_HasError()
T495C 000:799.348 JLINK_IsHalted()
T495C 000:799.723 - 0.377ms returns FALSE
T495C 000:799.735 JLINK_HasError()
T495C 000:801.568 JLINK_IsHalted()
T495C 000:826.389   CPU_ReadMem(2 bytes @ 0x20000000)
T495C 000:826.923 - 25.358ms returns TRUE
T495C 000:827.116 JLINK_ReadReg(R15 (PC))
T495C 000:827.237 - 0.123ms returns 0x20000000
T495C 000:827.244 JLINK_ClrBPEx(BPHandle = 0x00000003)
T495C 000:827.248 - 0.006ms returns 0x00
T495C 000:827.253 JLINK_ReadReg(R0)
T495C 000:827.257 - 0.184ms returns 0x00000000
T495C 000:829.765 JLINK_HasError()
T495C 000:829.778 JLINK_WriteReg(R0, 0x00000001)
T495C 000:829.962 - 0.186ms returns 0
T495C 000:829.967 JLINK_WriteReg(R1, 0x00004000)
T495C 000:829.970 - 0.005ms returns 0
T495C 000:829.974 JLINK_WriteReg(R2, 0x000000FF)
T495C 000:829.978 - 0.005ms returns 0
T495C 000:829.982 JLINK_WriteReg(R3, 0x00000000)
T495C 000:830.054 - 0.073ms returns 0
T495C 000:830.058 JLINK_WriteReg(R4, 0x00000000)
T495C 000:830.062 - 0.005ms returns 0
T495C 000:830.066 JLINK_WriteReg(R5, 0x00000000)
T495C 000:830.142 - 0.078ms returns 0
T495C 000:830.147 JLINK_WriteReg(R6, 0x00000000)
T495C 000:830.150 - 0.005ms returns 0
T495C 000:830.155 JLINK_WriteReg(R7, 0x00000000)
T495C 000:830.159 - 0.005ms returns 0
T495C 000:830.163 JLINK_WriteReg(R8, 0x00000000)
T495C 000:830.167 - 0.132ms returns 0
T495C 000:830.298 JLINK_WriteReg(R9, 0x20000180)
T495C 000:830.302 - 0.005ms returns 0
T495C 000:830.306 JLINK_WriteReg(R10, 0x00000000)
T495C 000:830.310 - 0.005ms returns 0
T495C 000:830.313 JLINK_WriteReg(R11, 0x00000000)
T495C 000:830.317 - 0.005ms returns 0
T495C 000:830.503 JLINK_WriteReg(R12, 0x00000000)
T495C 000:830.507 - 0.005ms returns 0
T495C 000:830.511 JLINK_WriteReg(R13 (SP), 0x20001000)
T495C 000:830.515 - 0.005ms returns 0
T495C 000:830.519 JLINK_WriteReg(R14, 0x20000001)
T495C 000:830.522 - 0.005ms returns 0
T495C 000:830.526 JLINK_WriteReg(R15 (PC), 0x20000086)
T495C 000:830.653 - 0.128ms returns 0
T495C 000:830.657 JLINK_WriteReg(XPSR, 0x01000000)
T495C 000:830.661 - 0.005ms returns 0
T495C 000:830.665 JLINK_WriteReg(MSP, 0x20001000)
T495C 000:830.668 - 0.005ms returns 0
T495C 000:830.672 JLINK_WriteReg(PSP, 0x20001000)
T495C 000:830.803 - 0.132ms returns 0
T495C 000:830.807 JLINK_WriteReg(CFBP, 0x00000000)
T495C 000:830.810 - 0.005ms returns 0
T495C 000:830.814 JLINK_SetBPEx(Addr = 0x20000000, Type = 0xFFFFFFF2)
T495C 000:830.823 - 0.011ms returns 0x00000004
T495C 000:831.006 JLINK_Go()
T495C 000:831.016   CPU_ReadMem(4 bytes @ 0xE0001000)
T495C 000:834.551 - 3.557ms
T495C 000:834.578 JLINK_IsHalted()
T495C 000:837.249   CPU_ReadMem(2 bytes @ 0x20000000)
T495C 000:837.560 - 2.984ms returns TRUE
T495C 000:837.574 JLINK_ReadReg(R15 (PC))
T495C 000:837.579 - 0.007ms returns 0x20000000
T495C 000:837.584 JLINK_ClrBPEx(BPHandle = 0x00000004)
T495C 000:837.588 - 0.005ms returns 0x00
T495C 000:837.593 JLINK_ReadReg(R0)
T495C 000:837.597 - 0.005ms returns 0x00000000
T495C 000:893.406 JLINK_WriteMem(0x20000000, 0x184 Bytes, ...)
T495C 000:893.424   Data:  00 BE 0A E0 0D 78 2D 06 68 40 08 24 40 00 00 D3 ...
T495C 000:893.446   CPU_WriteMem(388 bytes @ 0x20000000)
T495C 000:896.140 - 2.752ms returns 0x184
T495C 000:896.201 JLINK_HasError()
T495C 000:896.208 JLINK_WriteReg(R0, 0x08000000)
T495C 000:896.215 - 0.009ms returns 0
T495C 000:896.220 JLINK_WriteReg(R1, 0x017D7840)
T495C 000:896.224 - 0.005ms returns 0
T495C 000:896.227 JLINK_WriteReg(R2, 0x00000002)
T495C 000:896.231 - 0.005ms returns 0
T495C 000:896.235 JLINK_WriteReg(R3, 0x00000000)
T495C 000:896.238 - 0.005ms returns 0
T495C 000:896.242 JLINK_WriteReg(R4, 0x00000000)
T495C 000:896.246 - 0.005ms returns 0
T495C 000:896.250 JLINK_WriteReg(R5, 0x00000000)
T495C 000:896.253 - 0.005ms returns 0
T495C 000:896.257 JLINK_WriteReg(R6, 0x00000000)
T495C 000:896.261 - 0.005ms returns 0
T495C 000:896.265 JLINK_WriteReg(R7, 0x00000000)
T495C 000:896.268 - 0.005ms returns 0
T495C 000:896.272 JLINK_WriteReg(R8, 0x00000000)
T495C 000:896.276 - 0.005ms returns 0
T495C 000:896.280 JLINK_WriteReg(R9, 0x20000180)
T495C 000:896.283 - 0.005ms returns 0
T495C 000:896.287 JLINK_WriteReg(R10, 0x00000000)
T495C 000:896.290 - 0.005ms returns 0
T495C 000:896.294 JLINK_WriteReg(R11, 0x00000000)
T495C 000:896.298 - 0.005ms returns 0
T495C 000:896.302 JLINK_WriteReg(R12, 0x00000000)
T495C 000:896.305 - 0.005ms returns 0
T495C 000:896.309 JLINK_WriteReg(R13 (SP), 0x20001000)
T495C 000:896.314 - 0.006ms returns 0
T495C 000:896.318 JLINK_WriteReg(R14, 0x20000001)
T495C 000:896.321 - 0.005ms returns 0
T495C 000:896.325 JLINK_WriteReg(R15 (PC), 0x20000054)
T495C 000:896.329 - 0.005ms returns 0
T495C 000:896.333 JLINK_WriteReg(XPSR, 0x01000000)
T495C 000:896.337 - 0.005ms returns 0
T495C 000:896.341 JLINK_WriteReg(MSP, 0x20001000)
T495C 000:896.344 - 0.005ms returns 0
T495C 000:896.348 JLINK_WriteReg(PSP, 0x20001000)
T495C 000:896.351 - 0.005ms returns 0
T495C 000:896.355 JLINK_WriteReg(CFBP, 0x00000000)
T495C 000:896.359 - 0.005ms returns 0
T495C 000:896.363 JLINK_SetBPEx(Addr = 0x20000000, Type = 0xFFFFFFF2)
T495C 000:896.372   CPU_ReadMem(2 bytes @ 0x20000000)
T495C 000:896.784 - 0.429ms returns 0x00000005
T495C 000:896.804 JLINK_Go()
T495C 000:896.812   CPU_WriteMem(2 bytes @ 0x20000000)
T495C 000:897.257   CPU_ReadMem(4 bytes @ 0xE0001000)
T495C 000:900.402 - 3.608ms
T495C 000:900.422 JLINK_IsHalted()
T495C 000:903.509   CPU_ReadMem(2 bytes @ 0x20000000)
T495C 000:903.876 - 3.458ms returns TRUE
T495C 000:903.892 JLINK_ReadReg(R15 (PC))
T495C 000:903.899 - 0.009ms returns 0x20000000
T495C 000:903.904 JLINK_ClrBPEx(BPHandle = 0x00000005)
T495C 000:903.908 - 0.005ms returns 0x00
T495C 000:903.912 JLINK_ReadReg(R0)
T495C 000:903.916 - 0.005ms returns 0x00000000
T495C 000:905.980 JLINK_WriteMem(0x20000184, 0x27C Bytes, ...)
T495C 000:905.993   Data:  70 0B 00 20 39 02 00 08 4B 0F 00 08 D1 0E 00 08 ...
T495C 000:906.008   CPU_WriteMem(636 bytes @ 0x20000184)
T495C 000:909.748 - 3.781ms returns 0x27C
T495C 000:909.776 JLINK_WriteMem(0x20000400, 0x184 Bytes, ...)
T495C 000:909.781   Data:  00 F0 69 80 2D E9 F0 4B 4F F0 00 06 00 2B 1F BF ...
T495C 000:909.797   CPU_WriteMem(388 bytes @ 0x20000400)
T495C 000:912.168 - 2.400ms returns 0x184
T495C 000:912.187 JLINK_HasError()
T495C 000:912.194 JLINK_WriteReg(R0, 0x08000000)
T495C 000:912.201 - 0.008ms returns 0
T495C 000:912.205 JLINK_WriteReg(R1, 0x00000400)
T495C 000:912.209 - 0.053ms returns 0
T495C 000:912.264 JLINK_WriteReg(R2, 0x20000184)
T495C 000:912.268 - 0.005ms returns 0
T495C 000:912.272 JLINK_WriteReg(R3, 0x00000000)
T495C 000:912.275 - 0.005ms returns 0
T495C 000:912.279 JLINK_WriteReg(R4, 0x00000000)
T495C 000:912.283 - 0.005ms returns 0
T495C 000:912.287 JLINK_WriteReg(R5, 0x00000000)
T495C 000:912.290 - 0.005ms returns 0
T495C 000:912.294 JLINK_WriteReg(R6, 0x00000000)
T495C 000:912.298 - 0.005ms returns 0
T495C 000:912.302 JLINK_WriteReg(R7, 0x00000000)
T495C 000:912.306 - 0.005ms returns 0
T495C 000:912.310 JLINK_WriteReg(R8, 0x00000000)
T495C 000:912.313 - 0.005ms returns 0
T495C 000:912.317 JLINK_WriteReg(R9, 0x20000180)
T495C 000:912.321 - 0.005ms returns 0
T495C 000:912.325 JLINK_WriteReg(R10, 0x00000000)
T495C 000:912.328 - 0.005ms returns 0
T495C 000:912.332 JLINK_WriteReg(R11, 0x00000000)
T495C 000:912.336 - 0.005ms returns 0
T495C 000:912.340 JLINK_WriteReg(R12, 0x00000000)
T495C 000:912.344 - 0.005ms returns 0
T495C 000:912.348 JLINK_WriteReg(R13 (SP), 0x20001000)
T495C 000:912.352 - 0.006ms returns 0
T495C 000:912.356 JLINK_WriteReg(R14, 0x20000001)
T495C 000:912.360 - 0.005ms returns 0
T495C 000:912.364 JLINK_WriteReg(R15 (PC), 0x2000010C)
T495C 000:912.367 - 0.005ms returns 0
T495C 000:912.371 JLINK_WriteReg(XPSR, 0x01000000)
T495C 000:912.375 - 0.005ms returns 0
T495C 000:912.379 JLINK_WriteReg(MSP, 0x20001000)
T495C 000:912.383 - 0.005ms returns 0
T495C 000:912.387 JLINK_WriteReg(PSP, 0x20001000)
T495C 000:912.390 - 0.005ms returns 0
T495C 000:912.394 JLINK_WriteReg(CFBP, 0x00000000)
T495C 000:912.398 - 0.005ms returns 0
T495C 000:912.402 JLINK_SetBPEx(Addr = 0x20000000, Type = 0xFFFFFFF2)
T495C 000:912.407 - 0.006ms returns 0x00000006
T495C 000:912.412 JLINK_Go()
T495C 000:912.422   CPU_ReadMem(4 bytes @ 0xE0001000)
T495C 000:915.503 - 3.106ms
T495C 000:915.529 JLINK_IsHalted()
T495C 000:915.925 - 0.407ms returns FALSE
T495C 000:916.208 JLINK_HasError()
T495C 000:924.536 JLINK_IsHalted()
T495C 000:947.848   CPU_ReadMem(2 bytes @ 0x20000000)
T495C 000:948.446 - 23.921ms returns TRUE
T495C 000:948.470 JLINK_ReadReg(R15 (PC))
T495C 000:948.478 - 0.009ms returns 0x20000000
T495C 000:948.482 JLINK_ClrBPEx(BPHandle = 0x00000006)
T495C 000:948.486 - 0.005ms returns 0x00
T495C 000:948.491 JLINK_ReadReg(R0)
T495C 000:948.495 - 0.005ms returns 0x00000000
T495C 000:959.383 JLINK_WriteMem(0x20000184, 0x27C Bytes, ...)
T495C 000:959.403   Data:  08 10 F5 E7 12 1D 5C BF 51 F8 04 3B 40 F8 04 3B ...
T495C 000:959.423   CPU_WriteMem(636 bytes @ 0x20000184)
T495C 000:963.170 - 3.801ms returns 0x27C
T495C 000:963.196 JLINK_WriteMem(0x20000400, 0x184 Bytes, ...)
T495C 000:963.201   Data:  36 4E 07 EB 06 0C DC F8 08 68 97 07 3F 0F 09 FA ...
T495C 000:963.213   CPU_WriteMem(388 bytes @ 0x20000400)
T495C 000:965.856 - 2.865ms returns 0x184
T495C 000:966.186 JLINK_HasError()
T495C 000:966.193 JLINK_WriteReg(R0, 0x08000400)
T495C 000:966.201 - 0.009ms returns 0
T495C 000:966.303 JLINK_WriteReg(R1, 0x00000400)
T495C 000:966.308 - 0.005ms returns 0
T495C 000:966.312 JLINK_WriteReg(R2, 0x20000184)
T495C 000:966.315 - 0.005ms returns 0
T495C 000:966.319 JLINK_WriteReg(R3, 0x00000000)
T495C 000:966.323 - 0.005ms returns 0
T495C 000:966.327 JLINK_WriteReg(R4, 0x00000000)
T495C 000:966.417 - 0.092ms returns 0
T495C 000:966.421 JLINK_WriteReg(R5, 0x00000000)
T495C 000:966.425 - 0.005ms returns 0
T495C 000:966.429 JLINK_WriteReg(R6, 0x00000000)
T495C 000:966.432 - 0.005ms returns 0
T495C 000:966.436 JLINK_WriteReg(R7, 0x00000000)
T495C 000:966.621 - 0.186ms returns 0
T495C 000:966.625 JLINK_WriteReg(R8, 0x00000000)
T495C 000:966.629 - 0.005ms returns 0
T495C 000:966.633 JLINK_WriteReg(R9, 0x20000180)
T495C 000:966.636 - 0.005ms returns 0
T495C 000:966.640 JLINK_WriteReg(R10, 0x00000000)
T495C 000:966.644 - 0.005ms returns 0
T495C 000:966.831 JLINK_WriteReg(R11, 0x00000000)
T495C 000:966.835 - 0.005ms returns 0
T495C 000:966.839 JLINK_WriteReg(R12, 0x00000000)
T495C 000:966.842 - 0.005ms returns 0
T495C 000:966.849 JLINK_WriteReg(R13 (SP), 0x20001000)
T495C 000:967.034 - 0.186ms returns 0
T495C 000:967.038 JLINK_WriteReg(R14, 0x20000001)
T495C 000:967.042 - 0.005ms returns 0
T495C 000:967.046 JLINK_WriteReg(R15 (PC), 0x2000010C)
T495C 000:967.049 - 0.005ms returns 0
T495C 000:967.053 JLINK_WriteReg(XPSR, 0x01000000)
T495C 000:967.130 - 0.078ms returns 0
T495C 000:967.134 JLINK_WriteReg(MSP, 0x20001000)
T495C 000:967.140 - 0.007ms returns 0
T495C 000:967.144 JLINK_WriteReg(PSP, 0x20001000)
T495C 000:967.289 - 0.146ms returns 0
T495C 000:967.293 JLINK_WriteReg(CFBP, 0x00000000)
T495C 000:967.296 - 0.005ms returns 0
T495C 000:967.301 JLINK_SetBPEx(Addr = 0x20000000, Type = 0xFFFFFFF2)
T495C 000:967.306 - 0.006ms returns 0x00000007
T495C 000:967.310 JLINK_Go()
T495C 000:967.445   CPU_ReadMem(4 bytes @ 0xE0001000)
T495C 000:971.021 - 3.714ms
T495C 000:971.036 JLINK_IsHalted()
T495C 000:971.539 - 0.506ms returns FALSE
T495C 000:971.551 JLINK_HasError()
T495C 000:973.019 JLINK_IsHalted()
T495C 000:973.344 - 0.328ms returns FALSE
T495C 000:973.356 JLINK_HasError()
T495C 000:974.451 JLINK_IsHalted()
T495C 000:974.820 - 0.373ms returns FALSE
T495C 000:974.833 JLINK_HasError()
T495C 000:976.479 JLINK_IsHalted()
T495C 000:979.669   CPU_ReadMem(2 bytes @ 0x20000000)
T495C 000:980.327 - 3.948ms returns TRUE
T495C 000:980.440 JLINK_ReadReg(R15 (PC))
T495C 000:980.448 - 0.134ms returns 0x20000000
T495C 000:980.578 JLINK_ClrBPEx(BPHandle = 0x00000007)
T495C 000:980.582 - 0.006ms returns 0x00
T495C 000:980.587 JLINK_ReadReg(R0)
T495C 000:980.591 - 0.005ms returns 0x00000000
T495C 000:982.318 JLINK_WriteMem(0x20000184, 0x27C Bytes, ...)
T495C 000:982.330   Data:  0A 48 08 B5 01 68 41 F4 80 41 01 60 00 68 00 F4 ...
T495C 000:982.345   CPU_WriteMem(636 bytes @ 0x20000184)
T495C 001:006.909 - 24.615ms returns 0x27C
T495C 001:006.961 JLINK_WriteMem(0x20000400, 0x184 Bytes, ...)
T495C 001:006.966   Data:  A9 F1 04 05 4A D0 09 F1 04 00 01 68 C1 F3 81 01 ...
T495C 001:006.986   CPU_WriteMem(388 bytes @ 0x20000400)
T495C 001:009.397 - 2.451ms returns 0x184
T495C 001:009.427 JLINK_HasError()
T495C 001:009.437 JLINK_WriteReg(R0, 0x08000800)
T495C 001:009.446 - 0.011ms returns 0
T495C 001:009.451 JLINK_WriteReg(R1, 0x00000400)
T495C 001:009.454 - 0.005ms returns 0
T495C 001:009.458 JLINK_WriteReg(R2, 0x20000184)
T495C 001:009.462 - 0.005ms returns 0
T495C 001:009.466 JLINK_WriteReg(R3, 0x00000000)
T495C 001:009.470 - 0.005ms returns 0
T495C 001:009.474 JLINK_WriteReg(R4, 0x00000000)
T495C 001:009.477 - 0.005ms returns 0
T495C 001:009.481 JLINK_WriteReg(R5, 0x00000000)
T495C 001:009.484 - 0.005ms returns 0
T495C 001:009.488 JLINK_WriteReg(R6, 0x00000000)
T495C 001:009.492 - 0.005ms returns 0
T495C 001:009.496 JLINK_WriteReg(R7, 0x00000000)
T495C 001:009.499 - 0.005ms returns 0
T495C 001:009.503 JLINK_WriteReg(R8, 0x00000000)
T495C 001:009.507 - 0.005ms returns 0
T495C 001:009.511 JLINK_WriteReg(R9, 0x20000180)
T495C 001:009.514 - 0.005ms returns 0
T495C 001:009.518 JLINK_WriteReg(R10, 0x00000000)
T495C 001:009.521 - 0.005ms returns 0
T495C 001:009.525 JLINK_WriteReg(R11, 0x00000000)
T495C 001:009.529 - 0.005ms returns 0
T495C 001:009.533 JLINK_WriteReg(R12, 0x00000000)
T495C 001:009.536 - 0.005ms returns 0
T495C 001:009.540 JLINK_WriteReg(R13 (SP), 0x20001000)
T495C 001:009.545 - 0.006ms returns 0
T495C 001:009.548 JLINK_WriteReg(R14, 0x20000001)
T495C 001:009.552 - 0.005ms returns 0
T495C 001:009.556 JLINK_WriteReg(R15 (PC), 0x2000010C)
T495C 001:009.560 - 0.005ms returns 0
T495C 001:009.564 JLINK_WriteReg(XPSR, 0x01000000)
T495C 001:009.567 - 0.005ms returns 0
T495C 001:009.571 JLINK_WriteReg(MSP, 0x20001000)
T495C 001:009.575 - 0.005ms returns 0
T495C 001:009.578 JLINK_WriteReg(PSP, 0x20001000)
T495C 001:009.582 - 0.005ms returns 0
T495C 001:009.586 JLINK_WriteReg(CFBP, 0x00000000)
T495C 001:009.589 - 0.005ms returns 0
T495C 001:009.594 JLINK_SetBPEx(Addr = 0x20000000, Type = 0xFFFFFFF2)
T495C 001:009.599 - 0.006ms returns 0x00000008
T495C 001:009.603 JLINK_Go()
T495C 001:009.619   CPU_ReadMem(4 bytes @ 0xE0001000)
T495C 001:012.890 - 3.298ms
T495C 001:012.911 JLINK_IsHalted()
T495C 001:013.285 - 0.380ms returns FALSE
T495C 001:013.303 JLINK_HasError()
T495C 001:015.716 JLINK_IsHalted()
T495C 001:016.604 - 0.899ms returns FALSE
T495C 001:016.707 JLINK_HasError()
T495C 001:018.846 JLINK_IsHalted()
T495C 001:022.194   CPU_ReadMem(2 bytes @ 0x20000000)
T495C 001:022.695 - 3.853ms returns TRUE
T495C 001:022.711 JLINK_ReadReg(R15 (PC))
T495C 001:022.896 - 0.187ms returns 0x20000000
T495C 001:022.901 JLINK_ClrBPEx(BPHandle = 0x00000008)
T495C 001:022.906 - 0.006ms returns 0x00
T495C 001:022.911 JLINK_ReadReg(R0)
T495C 001:022.915 - 0.005ms returns 0x00000000
T495C 001:024.648 JLINK_WriteMem(0x20000184, 0x27C Bytes, ...)
T495C 001:024.663   Data:  DB F8 00 00 C0 00 0B D4 DB F8 00 10 41 F0 80 51 ...
T495C 001:024.678   CPU_WriteMem(636 bytes @ 0x20000184)
T495C 001:028.285 - 3.646ms returns 0x27C
T495C 001:028.307 JLINK_WriteMem(0x20000400, 0x184 Bytes, ...)
T495C 001:028.312   Data:  00 21 02 68 42 F0 10 02 02 60 00 68 00 F0 10 00 ...
T495C 001:028.324   CPU_WriteMem(388 bytes @ 0x20000400)
T495C 001:030.695 - 2.393ms returns 0x184
T495C 001:030.719 JLINK_HasError()
T495C 001:030.726 JLINK_WriteReg(R0, 0x08000C00)
T495C 001:030.733 - 0.008ms returns 0
T495C 001:030.737 JLINK_WriteReg(R1, 0x00000400)
T495C 001:030.741 - 0.005ms returns 0
T495C 001:030.746 JLINK_WriteReg(R2, 0x20000184)
T495C 001:030.749 - 0.005ms returns 0
T495C 001:030.754 JLINK_WriteReg(R3, 0x00000000)
T495C 001:030.757 - 0.005ms returns 0
T495C 001:030.761 JLINK_WriteReg(R4, 0x00000000)
T495C 001:030.765 - 0.005ms returns 0
T495C 001:030.769 JLINK_WriteReg(R5, 0x00000000)
T495C 001:030.773 - 0.005ms returns 0
T495C 001:030.777 JLINK_WriteReg(R6, 0x00000000)
T495C 001:030.781 - 0.005ms returns 0
T495C 001:030.785 JLINK_WriteReg(R7, 0x00000000)
T495C 001:030.789 - 0.005ms returns 0
T495C 001:030.793 JLINK_WriteReg(R8, 0x00000000)
T495C 001:030.797 - 0.005ms returns 0
T495C 001:030.801 JLINK_WriteReg(R9, 0x20000180)
T495C 001:030.805 - 0.005ms returns 0
T495C 001:030.809 JLINK_WriteReg(R10, 0x00000000)
T495C 001:030.813 - 0.005ms returns 0
T495C 001:030.817 JLINK_WriteReg(R11, 0x00000000)
T495C 001:030.821 - 0.005ms returns 0
T495C 001:030.825 JLINK_WriteReg(R12, 0x00000000)
T495C 001:030.829 - 0.005ms returns 0
T495C 001:030.833 JLINK_WriteReg(R13 (SP), 0x20001000)
T495C 001:030.838 - 0.006ms returns 0
T495C 001:030.842 JLINK_WriteReg(R14, 0x20000001)
T495C 001:030.846 - 0.005ms returns 0
T495C 001:030.850 JLINK_WriteReg(R15 (PC), 0x2000010C)
T495C 001:030.854 - 0.005ms returns 0
T495C 001:030.858 JLINK_WriteReg(XPSR, 0x01000000)
T495C 001:030.862 - 0.005ms returns 0
T495C 001:030.866 JLINK_WriteReg(MSP, 0x20001000)
T495C 001:030.870 - 0.005ms returns 0
T495C 001:030.874 JLINK_WriteReg(PSP, 0x20001000)
T495C 001:030.878 - 0.005ms returns 0
T495C 001:030.882 JLINK_WriteReg(CFBP, 0x00000000)
T495C 001:030.886 - 0.005ms returns 0
T495C 001:030.891 JLINK_SetBPEx(Addr = 0x20000000, Type = 0xFFFFFFF2)
T495C 001:030.896 - 0.006ms returns 0x00000009
T495C 001:030.900 JLINK_Go()
T495C 001:030.912   CPU_ReadMem(4 bytes @ 0xE0001000)
T495C 001:033.999 - 3.104ms
T495C 001:034.017 JLINK_IsHalted()
T495C 001:034.327 - 0.312ms returns FALSE
T495C 001:034.340 JLINK_HasError()
T495C 001:035.638 JLINK_IsHalted()
T495C 001:061.798   CPU_ReadMem(2 bytes @ 0x20000000)
T495C 001:062.755 - 27.127ms returns TRUE
T495C 001:062.797 JLINK_ReadReg(R15 (PC))
T495C 001:062.807 - 0.012ms returns 0x20000000
T495C 001:062.813 JLINK_ClrBPEx(BPHandle = 0x00000009)
T495C 001:062.817 - 0.006ms returns 0x00
T495C 001:062.822 JLINK_ReadReg(R0)
T495C 001:062.826 - 0.006ms returns 0x00000000
T495C 001:065.502 JLINK_WriteMem(0x20000184, 0x27C Bytes, ...)
T495C 001:065.517   Data:  06 46 07 A8 02 90 40 20 00 25 CD E9 03 05 CD E9 ...
T495C 001:065.535   CPU_WriteMem(636 bytes @ 0x20000184)
T495C 001:069.329 - 4.029ms returns 0x27C
T495C 001:069.736 JLINK_WriteMem(0x20000400, 0x184 Bytes, ...)
T495C 001:069.745   Data:  30 49 88 42 02 D1 FF F7 B1 FB 01 E0 FF F7 9E FB ...
T495C 001:069.888   CPU_WriteMem(388 bytes @ 0x20000400)
T495C 001:072.295 - 2.566ms returns 0x184
T495C 001:072.440 JLINK_HasError()
T495C 001:072.455 JLINK_WriteReg(R0, 0x08001000)
T495C 001:072.465 - 0.011ms returns 0
T495C 001:072.469 JLINK_WriteReg(R1, 0x00000400)
T495C 001:072.474 - 0.006ms returns 0
T495C 001:072.478 JLINK_WriteReg(R2, 0x20000184)
T495C 001:072.482 - 0.005ms returns 0
T495C 001:072.486 JLINK_WriteReg(R3, 0x00000000)
T495C 001:072.490 - 0.005ms returns 0
T495C 001:072.494 JLINK_WriteReg(R4, 0x00000000)
T495C 001:072.498 - 0.005ms returns 0
T495C 001:072.502 JLINK_WriteReg(R5, 0x00000000)
T495C 001:072.506 - 0.005ms returns 0
T495C 001:072.510 JLINK_WriteReg(R6, 0x00000000)
T495C 001:072.514 - 0.005ms returns 0
T495C 001:072.518 JLINK_WriteReg(R7, 0x00000000)
T495C 001:072.522 - 0.005ms returns 0
T495C 001:072.526 JLINK_WriteReg(R8, 0x00000000)
T495C 001:072.530 - 0.005ms returns 0
T495C 001:072.534 JLINK_WriteReg(R9, 0x20000180)
T495C 001:072.538 - 0.005ms returns 0
T495C 001:072.542 JLINK_WriteReg(R10, 0x00000000)
T495C 001:072.546 - 0.005ms returns 0
T495C 001:072.550 JLINK_WriteReg(R11, 0x00000000)
T495C 001:072.554 - 0.005ms returns 0
T495C 001:072.558 JLINK_WriteReg(R12, 0x00000000)
T495C 001:072.562 - 0.005ms returns 0
T495C 001:072.566 JLINK_WriteReg(R13 (SP), 0x20001000)
T495C 001:072.571 - 0.006ms returns 0
T495C 001:072.575 JLINK_WriteReg(R14, 0x20000001)
T495C 001:072.579 - 0.005ms returns 0
T495C 001:072.583 JLINK_WriteReg(R15 (PC), 0x2000010C)
T495C 001:072.587 - 0.005ms returns 0
T495C 001:072.591 JLINK_WriteReg(XPSR, 0x01000000)
T495C 001:072.595 - 0.005ms returns 0
T495C 001:072.599 JLINK_WriteReg(MSP, 0x20001000)
T495C 001:072.603 - 0.005ms returns 0
T495C 001:072.607 JLINK_WriteReg(PSP, 0x20001000)
T495C 001:072.611 - 0.005ms returns 0
T495C 001:072.615 JLINK_WriteReg(CFBP, 0x00000000)
T495C 001:072.619 - 0.005ms returns 0
T495C 001:072.623 JLINK_SetBPEx(Addr = 0x20000000, Type = 0xFFFFFFF2)
T495C 001:072.629 - 0.007ms returns 0x0000000A
T495C 001:072.633 JLINK_Go()
T495C 001:072.647   CPU_ReadMem(4 bytes @ 0xE0001000)
T495C 001:076.950 - 4.338ms
T495C 001:076.999 JLINK_IsHalted()
T495C 001:077.321 - 0.325ms returns FALSE
T495C 001:077.335 JLINK_HasError()
T495C 001:080.939 JLINK_IsHalted()
T495C 001:083.651   CPU_ReadMem(2 bytes @ 0x20000000)
T495C 001:083.956 - 3.020ms returns TRUE
T495C 001:083.973 JLINK_ReadReg(R15 (PC))
T495C 001:083.980 - 0.009ms returns 0x20000000
T495C 001:083.985 JLINK_ClrBPEx(BPHandle = 0x0000000A)
T495C 001:083.990 - 0.006ms returns 0x00
T495C 001:083.995 JLINK_ReadReg(R0)
T495C 001:083.999 - 0.005ms returns 0x00000000
T495C 001:084.502 JLINK_WriteMem(0x20000184, 0x27C Bytes, ...)
T495C 001:084.511   Data:  00 D5 64 1E B8 07 02 D5 B8 F1 00 0F 0F D0 F8 07 ...
T495C 001:084.524   CPU_WriteMem(636 bytes @ 0x20000184)
T495C 001:088.273 - 3.779ms returns 0x27C
T495C 001:088.427 JLINK_WriteMem(0x20000400, 0x184 Bytes, ...)
T495C 001:088.432   Data:  20 46 FE F7 75 FF F7 E7 48 65 6C 6C 6F 20 53 45 ...
T495C 001:088.517   CPU_WriteMem(388 bytes @ 0x20000400)
T495C 001:090.856 - 2.440ms returns 0x184
T495C 001:090.883 JLINK_HasError()
T495C 001:090.890 JLINK_WriteReg(R0, 0x08001400)
T495C 001:090.899 - 0.010ms returns 0
T495C 001:090.903 JLINK_WriteReg(R1, 0x000002FC)
T495C 001:090.908 - 0.006ms returns 0
T495C 001:090.912 JLINK_WriteReg(R2, 0x20000184)
T495C 001:090.916 - 0.005ms returns 0
T495C 001:090.920 JLINK_WriteReg(R3, 0x00000000)
T495C 001:090.924 - 0.005ms returns 0
T495C 001:090.928 JLINK_WriteReg(R4, 0x00000000)
T495C 001:090.932 - 0.005ms returns 0
T495C 001:090.936 JLINK_WriteReg(R5, 0x00000000)
T495C 001:090.940 - 0.005ms returns 0
T495C 001:090.944 JLINK_WriteReg(R6, 0x00000000)
T495C 001:090.948 - 0.005ms returns 0
T495C 001:090.952 JLINK_WriteReg(R7, 0x00000000)
T495C 001:090.956 - 0.005ms returns 0
T495C 001:090.960 JLINK_WriteReg(R8, 0x00000000)
T495C 001:090.967 - 0.011ms returns 0
T495C 001:090.974 JLINK_WriteReg(R9, 0x20000180)
T495C 001:090.978 - 0.005ms returns 0
T495C 001:090.982 JLINK_WriteReg(R10, 0x00000000)
T495C 001:090.986 - 0.005ms returns 0
T495C 001:090.990 JLINK_WriteReg(R11, 0x00000000)
T495C 001:090.994 - 0.005ms returns 0
T495C 001:090.998 JLINK_WriteReg(R12, 0x00000000)
T495C 001:091.002 - 0.005ms returns 0
T495C 001:091.006 JLINK_WriteReg(R13 (SP), 0x20001000)
T495C 001:091.010 - 0.006ms returns 0
T495C 001:091.014 JLINK_WriteReg(R14, 0x20000001)
T495C 001:091.018 - 0.005ms returns 0
T495C 001:091.022 JLINK_WriteReg(R15 (PC), 0x2000010C)
T495C 001:091.027 - 0.006ms returns 0
T495C 001:091.031 JLINK_WriteReg(XPSR, 0x01000000)
T495C 001:091.035 - 0.005ms returns 0
T495C 001:091.039 JLINK_WriteReg(MSP, 0x20001000)
